T4CB8 031:724.711   SEGGER J-Link V6.98e Log File
T4CB8 031:724.786   DLL Compiled: Mar 29 2021 14:18:39
T4CB8 031:724.808   Logging started @ 2023-09-17 05:27
T4CB8 031:724.829 - 512.636ms
T4CB8 031:724.856 JLINK_SetWarnOutHandler(...)
T4CB8 031:724.877 - 0.030ms
T4CB8 031:724.900 JLINK_OpenEx(...)
T4CB8 031:730.354   Firmware: J-Link V9 compiled May  7 2021 16:26:12
T4CB8 031:731.401   Firmware: J-Link V9 compiled May  7 2021 16:26:12
T4CB8 031:731.588   Decompressing FW timestamp took 139 us
T4CB8 031:740.750   Hardware: V9.40
T4CB8 031:740.805   S/N: 59406895
T4CB8 031:740.836   OEM: SEGGER
T4CB8 031:740.869   Feature(s): RDI, GDB, FlashDL, FlashBP, JFlash
T4CB8 031:752.818   TELNET listener socket opened on port 19021
T4CB8 031:755.932   WEBSRV Starting webserver
T4CB8 031:756.026   WEBSRV Failed to put socket into listener state (port 19080)
T4CB8 031:756.172   WEBSRV Webserver running on local port 19081
T4CB8 031:756.204 - 31.314ms returns "O.K."
T4CB8 031:756.331 JLINK_GetEmuCaps()
T4CB8 031:756.361 - 0.040ms returns 0xB9FF7BBF
T4CB8 031:756.387 JLINK_TIF_GetAvailable(...)
T4CB8 031:756.969 - 0.606ms
T4CB8 031:757.062 JLINK_SetErrorOutHandler(...)
T4CB8 031:757.087 - 0.035ms
T4CB8 031:757.114 JLINK_ExecCommand("ProjectFile = "F:\code\Embedded\project\Magic\boot\JLinkSettings.ini"", ...). 
T4CB8 031:759.555 - 2.465ms returns 0x00
T4CB8 031:759.641 JLINK_ExecCommand("Device = STM32F103RC", ...). 
T4CB8 031:759.996   Device "STM32F103RC" selected.
T4CB8 031:760.585 - 0.924ms returns 0x00
T4CB8 031:760.638 JLINK_GetHardwareVersion()
T4CB8 031:760.662 - 0.033ms returns 94000
T4CB8 031:760.685 JLINK_GetDLLVersion()
T4CB8 031:760.705 - 0.029ms returns 69805
T4CB8 031:760.727 JLINK_GetOEMString(...)
T4CB8 031:760.750 JLINK_GetFirmwareString(...)
T4CB8 031:760.770 - 0.029ms
T4CB8 031:760.808 JLINK_GetDLLVersion()
T4CB8 031:760.829 - 0.030ms returns 69805
T4CB8 031:760.851 JLINK_GetCompileDateTime()
T4CB8 031:760.871 - 0.029ms
T4CB8 031:760.897 JLINK_GetFirmwareString(...)
T4CB8 031:760.917 - 0.029ms
T4CB8 031:760.943 JLINK_GetHardwareVersion()
T4CB8 031:760.963 - 0.029ms returns 94000
T4CB8 031:760.989 JLINK_GetSN()
T4CB8 031:761.010 - 0.031ms returns 59406895
T4CB8 031:761.036 JLINK_GetOEMString(...)
T4CB8 031:761.068 JLINK_TIF_Select(JLINKARM_TIF_SWD)
T4CB8 031:763.383 - 2.342ms returns 0x00
T4CB8 031:763.484 JLINK_HasError()
T4CB8 031:763.515 JLINK_SetSpeed(5000)
T4CB8 031:764.097 - 0.599ms
T4CB8 031:764.178 JLINK_GetId()
T4CB8 031:766.479   Found SW-DP with ID 0x1BA01477
T4CB8 031:798.983   Found SW-DP with ID 0x1BA01477
T4CB8 031:803.601   DPIDR: 0x1BA01477
T4CB8 031:803.653   Scanning AP map to find all available APs
T4CB8 031:804.787   AP[1]: Stopped AP scan as end of AP map has been reached
T4CB8 031:804.836   AP[0]: AHB-AP (IDR: 0x14770011)
T4CB8 031:804.871   Iterating through AP map to find AHB-AP to use
T4CB8 031:806.428   AP[0]: Core found
T4CB8 031:806.472   AP[0]: AHB-AP ROM base: 0xE00FF000
T4CB8 031:807.316   CPUID register: 0x411FC231. Implementer code: 0x41 (ARM)
T4CB8 031:807.358   Found Cortex-M3 r1p1, Little endian.
T4CB8 031:910.039   -- Max. mem block: 0x00010B50
T4CB8 031:913.562   CPU_ReadMem(4 bytes @ 0xE000EDF0)
T4CB8 031:914.177   CPU_ReadMem(4 bytes @ 0xE0002000)
T4CB8 031:914.807   FPUnit: 6 code (BP) slots and 2 literal slots
T4CB8 031:914.844   CPU_ReadMem(4 bytes @ 0xE000EDFC)
T4CB8 031:915.420   CPU_ReadMem(4 bytes @ 0xE0001000)
T4CB8 031:916.022   CPU_WriteMem(4 bytes @ 0xE0001000)
T4CB8 031:916.582   CPU_ReadMem(4 bytes @ 0xE000ED88)
T4CB8 031:917.199   CPU_WriteMem(4 bytes @ 0xE000ED88)
T4CB8 031:917.782   CPU_ReadMem(4 bytes @ 0xE000ED88)
T4CB8 031:918.355   CPU_WriteMem(4 bytes @ 0xE000ED88)
T4CB8 031:918.923   CoreSight components:
T4CB8 031:918.964   ROMTbl[0] @ E00FF000
T4CB8 031:918.996   CPU_ReadMem(64 bytes @ 0xE00FF000)
T4CB8 031:919.957   CPU_ReadMem(32 bytes @ 0xE000EFE0)
T4CB8 031:920.627   ROMTbl[0][0]: E000E000, CID: B105E00D, PID: 001BB000 SCS
T4CB8 031:920.663   CPU_ReadMem(32 bytes @ 0xE0001FE0)
T4CB8 031:921.379   ROMTbl[0][1]: E0001000, CID: B105E00D, PID: 001BB002 DWT
T4CB8 031:921.415   CPU_ReadMem(32 bytes @ 0xE0002FE0)
T4CB8 031:922.165   ROMTbl[0][2]: E0002000, CID: B105E00D, PID: 000BB003 FPB
T4CB8 031:922.205   CPU_ReadMem(32 bytes @ 0xE0000FE0)
T4CB8 031:922.842   ROMTbl[0][3]: E0000000, CID: B105E00D, PID: 001BB001 ITM
T4CB8 031:922.879   CPU_ReadMem(32 bytes @ 0xE0040FE0)
T4CB8 031:923.516   ROMTbl[0][4]: E0040000, CID: B105900D, PID: 001BB923 TPIU-Lite
T4CB8 031:923.553   CPU_ReadMem(32 bytes @ 0xE0041FE0)
T4CB8 031:924.333   ROMTbl[0][5]: E0041000, CID: B105900D, PID: 101BB924 ETM-M3
T4CB8 031:924.885 - 160.722ms returns 0x1BA01477
T4CB8 031:924.964 JLINK_GetDLLVersion()
T4CB8 031:924.986 - 0.032ms returns 69805
T4CB8 031:925.018 JLINK_CORE_GetFound()
T4CB8 031:925.039 - 0.030ms returns 0x30000FF
T4CB8 031:925.062 JLINK_GetDebugInfo(0x100 = JLINKARM_ROM_TABLE_ADDR_INDEX)
T4CB8 031:925.088   Value=0xE00FF000
T4CB8 031:925.118 - 0.065ms returns 0
T4CB8 031:925.150 JLINK_GetDebugInfo(0x100 = JLINKARM_ROM_TABLE_ADDR_INDEX)
T4CB8 031:925.171   Value=0xE00FF000
T4CB8 031:925.200 - 0.060ms returns 0
T4CB8 031:925.222 JLINK_GetDebugInfo(0x101 = JLINKARM_DEBUG_INFO_ETM_ADDR_INDEX)
T4CB8 031:925.242   Value=0xE0041000
T4CB8 031:925.271 - 0.059ms returns 0
T4CB8 031:925.294 JLINK_ReadMemEx(0xE0041FD0, 0x20 Bytes, Flags = 0x02000004)
T4CB8 031:925.321   CPU_ReadMem(32 bytes @ 0xE0041FD0)
T4CB8 031:926.074   Data:  04 00 00 00 00 00 00 00 00 00 00 00 00 00 00 00 ...
T4CB8 031:926.117 - 0.833ms returns 32 (0x20)
T4CB8 031:926.188 JLINK_GetDebugInfo(0x102 = JLINKARM_DEBUG_INFO_MTB_ADDR_INDEX)
T4CB8 031:926.211   Value=0x00000000
T4CB8 031:926.241 - 0.062ms returns 0
T4CB8 031:926.263 JLINK_GetDebugInfo(0x103 = JLINKARM_DEBUG_INFO_TPIU_ADDR_INDEX)
T4CB8 031:926.283   Value=0xE0040000
T4CB8 031:926.312 - 0.059ms returns 0
T4CB8 031:926.333 JLINK_GetDebugInfo(0x104 = JLINKARM_DEBUG_INFO_ITM_ADDR_INDEX)
T4CB8 031:926.353   Value=0xE0000000
T4CB8 031:926.383 - 0.059ms returns 0
T4CB8 031:926.404 JLINK_GetDebugInfo(0x105 = JLINKARM_DEBUG_INFO_DWT_ADDR_INDEX)
T4CB8 031:926.424   Value=0xE0001000
T4CB8 031:926.453 - 0.058ms returns 0
T4CB8 031:926.474 JLINK_GetDebugInfo(0x106 = JLINKARM_DEBUG_INFO_FPB_ADDR_INDEX)
T4CB8 031:926.494   Value=0xE0002000
T4CB8 031:926.523 - 0.058ms returns 0
T4CB8 031:926.545 JLINK_GetDebugInfo(0x107 = JLINKARM_DEBUG_INFO_NVIC_ADDR_INDEX)
T4CB8 031:926.565   Value=0xE000E000
T4CB8 031:926.594 - 0.058ms returns 0
T4CB8 031:926.615 JLINK_GetDebugInfo(0x10C = JLINKARM_DEBUG_INFO_DBG_ADDR_INDEX)
T4CB8 031:926.635   Value=0xE000EDF0
T4CB8 031:926.664 - 0.058ms returns 0
T4CB8 031:926.685 JLINK_GetDebugInfo(0x01 = Unknown)
T4CB8 031:926.705   Value=0x00000000
T4CB8 031:926.735 - 0.058ms returns 0
T4CB8 031:926.759 JLINK_ReadMemU32(0xE000ED00, 0x1 Items)
T4CB8 031:926.784   CPU_ReadMem(4 bytes @ 0xE000ED00)
T4CB8 031:927.362   Data:  31 C2 1F 41
T4CB8 031:927.398   Debug reg: CPUID
T4CB8 031:927.428 - 0.679ms returns 1 (0x1)
T4CB8 031:927.497 JLINK_GetDebugInfo(0x10F = JLINKARM_DEBUG_INFO_HAS_CORTEX_M_SECURITY_EXT_INDEX)
T4CB8 031:927.520   Value=0x00000000
T4CB8 031:927.549 - 0.062ms returns 0
T4CB8 031:927.572 JLINK_HasError()
T4CB8 031:927.596 JLINK_SetResetType(JLINKARM_CM3_RESET_TYPE_NORMAL)
T4CB8 031:927.617 - 0.030ms returns JLINKARM_CM3_RESET_TYPE_NORMAL
T4CB8 031:927.640 JLINK_Reset()
T4CB8 031:927.806   CPU is running
T4CB8 031:927.842   CPU_WriteMem(4 bytes @ 0xE000EDF0)
T4CB8 031:928.466   CPU is running
T4CB8 031:928.503   CPU_WriteMem(4 bytes @ 0xE000EDFC)
T4CB8 031:929.256   Reset: Halt core after reset via DEMCR.VC_CORERESET.
T4CB8 031:930.400   Reset: Reset device via AIRCR.SYSRESETREQ.
T4CB8 031:930.443   CPU is running
T4CB8 031:930.475   CPU_WriteMem(4 bytes @ 0xE000ED0C)
T4CB8 031:984.666   CPU_ReadMem(4 bytes @ 0xE000EDF0)
T4CB8 031:985.924   CPU_ReadMem(4 bytes @ 0xE000EDF0)
T4CB8 031:987.234   CPU is running
T4CB8 031:987.290   CPU_WriteMem(4 bytes @ 0xE000EDF0)
T4CB8 031:988.653   CPU is running
T4CB8 031:988.766   CPU_WriteMem(4 bytes @ 0xE000EDFC)
T4CB8 031:995.848   CPU_ReadMem(4 bytes @ 0xE000EDF0)
T4CB8 032:001.906   CPU_WriteMem(4 bytes @ 0xE0002000)
T4CB8 032:002.636   CPU_ReadMem(4 bytes @ 0xE000EDFC)
T4CB8 032:003.345   CPU_ReadMem(4 bytes @ 0xE0001000)
T4CB8 032:004.125 - 76.503ms
T4CB8 032:004.225 JLINK_HasError()
T4CB8 032:004.257 JLINK_ReadReg(R15 (PC))
T4CB8 032:004.282 - 0.035ms returns 0x08000144
T4CB8 032:004.305 JLINK_ReadReg(XPSR)
T4CB8 032:004.326 - 0.030ms returns 0x01000000
T4CB8 032:004.349 JLINK_Halt()
T4CB8 032:004.369 - 0.029ms returns 0x00
T4CB8 032:004.391 JLINK_ReadMemU32(0xE000EDF0, 0x1 Items)
T4CB8 032:004.415   CPU_ReadMem(4 bytes @ 0xE000EDF0)
T4CB8 032:005.525   Data:  03 00 03 00
T4CB8 032:005.573   Debug reg: DHCSR
T4CB8 032:005.602 - 1.221ms returns 1 (0x1)
T4CB8 032:005.675 JLINK_WriteU32_64(0xE000EDF0, 0xA05F0003)
T4CB8 032:005.698   Debug reg: DHCSR
T4CB8 032:005.966   CPU_WriteMem(4 bytes @ 0xE000EDF0)
T4CB8 032:007.574 - 1.916ms returns 0 (0x00000000)
T4CB8 032:007.658 JLINK_WriteU32_64(0xE000EDFC, 0x01000000)
T4CB8 032:007.683   Debug reg: DEMCR
T4CB8 032:007.719   CPU_WriteMem(4 bytes @ 0xE000EDFC)
T4CB8 032:008.907 - 1.266ms returns 0 (0x00000000)
T4CB8 032:009.025 JLINK_GetHWStatus(...)
T4CB8 032:010.151 - 1.142ms returns 0
T4CB8 032:010.256 JLINK_GetNumBPUnits(Type = 0xFFFFFF00)
T4CB8 032:010.281 - 0.035ms returns 0x06
T4CB8 032:010.303 JLINK_GetNumBPUnits(Type = 0xF0)
T4CB8 032:010.324 - 0.030ms returns 0x2000
T4CB8 032:010.346 JLINK_GetNumWPUnits()
T4CB8 032:010.366 - 0.029ms returns 4
T4CB8 032:010.399 JLINK_GetSpeed()
T4CB8 032:010.420 - 0.030ms returns 4000
T4CB8 032:010.449 JLINK_ReadMemU32(0xE000E004, 0x1 Items)
T4CB8 032:010.474   CPU_ReadMem(4 bytes @ 0xE000E004)
T4CB8 032:011.557   Data:  01 00 00 00
T4CB8 032:011.595 - 1.156ms returns 1 (0x1)
T4CB8 032:011.671 JLINK_ReadMemU32(0xE000E004, 0x1 Items)
T4CB8 032:011.699   CPU_ReadMem(4 bytes @ 0xE000E004)
T4CB8 032:012.405   Data:  01 00 00 00
T4CB8 032:012.443 - 0.781ms returns 1 (0x1)
T4CB8 032:012.522 JLINK_WriteMemEx(0xE0001000, 0x0000001C Bytes, Flags = 0x02000004)
T4CB8 032:012.545   Data:  01 00 00 00 00 00 00 00 00 00 00 00 00 00 00 00 ...
T4CB8 032:012.582   CPU_WriteMem(28 bytes @ 0xE0001000)
T4CB8 032:013.847 - 1.342ms returns 0x1C
T4CB8 032:013.931 JLINK_HasError()
T4CB8 032:013.957 JLINK_ReadReg(R15 (PC))
T4CB8 032:013.981 - 0.033ms returns 0x08000144
T4CB8 032:014.003 JLINK_ReadReg(XPSR)
T4CB8 032:014.024 - 0.031ms returns 0x01000000
T4CB8 032:109.468 JLINK_HasError()
T4CB8 032:109.512 JLINK_SetResetType(JLINKARM_CM3_RESET_TYPE_NORMAL)
T4CB8 032:109.534 - 0.031ms returns JLINKARM_CM3_RESET_TYPE_NORMAL
T4CB8 032:109.557 JLINK_Reset()
T4CB8 032:109.819   CPU_WriteMem(4 bytes @ 0xE000EDF0)
T4CB8 032:110.447   CPU_WriteMem(4 bytes @ 0xE000EDFC)
T4CB8 032:111.090   Reset: Halt core after reset via DEMCR.VC_CORERESET.
T4CB8 032:112.105   Reset: Reset device via AIRCR.SYSRESETREQ.
T4CB8 032:112.146   CPU_WriteMem(4 bytes @ 0xE000ED0C)
T4CB8 032:166.761   CPU_ReadMem(4 bytes @ 0xE000EDF0)
T4CB8 032:167.577   CPU_ReadMem(4 bytes @ 0xE000EDF0)
T4CB8 032:168.430   CPU_WriteMem(4 bytes @ 0xE000EDF0)
T4CB8 032:169.311   CPU_WriteMem(4 bytes @ 0xE000EDFC)
T4CB8 032:176.117   CPU_ReadMem(4 bytes @ 0xE000EDF0)
T4CB8 032:179.485   CPU_WriteMem(4 bytes @ 0xE0002000)
T4CB8 032:180.206   CPU_ReadMem(4 bytes @ 0xE000EDFC)
T4CB8 032:180.888   CPU_ReadMem(4 bytes @ 0xE0001000)
T4CB8 032:181.594 - 72.057ms
T4CB8 032:181.716 JLINK_HasError()
T4CB8 032:181.744 JLINK_ReadReg(R15 (PC))
T4CB8 032:181.768 - 0.034ms returns 0x08000144
T4CB8 032:181.791 JLINK_ReadReg(XPSR)
T4CB8 032:181.812 - 0.030ms returns 0x01000000
T4CB8 032:182.330 JLINK_ReadMemEx(0x08000144, 0x3C Bytes, Flags = 0x02000000)
T4CB8 032:182.365   CPU_ReadMem(64 bytes @ 0x08000140)
T4CB8 032:183.273    -- Updating C cache (64 bytes @ 0x08000140)
T4CB8 032:183.311    -- Read from C cache (60 bytes @ 0x08000144)
T4CB8 032:183.343   Data:  06 48 80 47 06 48 00 47 FE E7 FE E7 FE E7 FE E7 ...
T4CB8 032:183.378 - 1.057ms returns 60 (0x3C)
T4CB8 032:510.527 JLINK_ReadMemEx(0x40022000, 0x4 Bytes, Flags = 0x02000004)
T4CB8 032:510.578   CPU_ReadMem(4 bytes @ 0x40022000)
T4CB8 032:511.291   Data:  30 00 00 00
T4CB8 032:511.332 - 0.816ms returns 4 (0x4)
T4CB8 032:511.415 JLINK_ReadMemEx(0x40022000, 0x4 Bytes, Flags = 0x02000004)
T4CB8 032:511.444   CPU_ReadMem(4 bytes @ 0x40022000)
T4CB8 032:512.050   Data:  30 00 00 00
T4CB8 032:512.087 - 0.682ms returns 4 (0x4)
T4CB8 032:512.162 JLINK_ReadMemEx(0x4002200C, 0x4 Bytes, Flags = 0x02000004)
T4CB8 032:512.190   CPU_ReadMem(4 bytes @ 0x4002200C)
T4CB8 032:512.910   Data:  00 00 00 00
T4CB8 032:512.946 - 0.793ms returns 4 (0x4)
T4CB8 032:513.015 JLINK_ReadMemEx(0x4002200C, 0x4 Bytes, Flags = 0x02000004)
T4CB8 032:513.042   CPU_ReadMem(4 bytes @ 0x4002200C)
T4CB8 032:513.733   Data:  00 00 00 00
T4CB8 032:513.769 - 0.763ms returns 4 (0x4)
T4CB8 032:513.838 JLINK_ReadMemEx(0x40022010, 0x4 Bytes, Flags = 0x02000004)
T4CB8 032:513.864   CPU_ReadMem(4 bytes @ 0x40022010)
T4CB8 032:514.593   Data:  80 00 00 00
T4CB8 032:514.628 - 0.800ms returns 4 (0x4)
T4CB8 032:514.696 JLINK_ReadMemEx(0x40022010, 0x4 Bytes, Flags = 0x02000004)
T4CB8 032:514.722   CPU_ReadMem(4 bytes @ 0x40022010)
T4CB8 032:515.306   Data:  80 00 00 00
T4CB8 032:515.342 - 0.656ms returns 4 (0x4)
T4CB8 032:515.411 JLINK_ReadMemEx(0x4002201C, 0x4 Bytes, Flags = 0x02000004)
T4CB8 032:515.438   CPU_ReadMem(4 bytes @ 0x4002201C)
T4CB8 032:516.063   Data:  FC FF FF 03
T4CB8 032:516.098 - 0.697ms returns 4 (0x4)
T4CB8 032:516.166 JLINK_ReadMemEx(0x4002201C, 0x4 Bytes, Flags = 0x02000004)
T4CB8 032:516.192   CPU_ReadMem(4 bytes @ 0x4002201C)
T4CB8 032:516.742   Data:  FC FF FF 03
T4CB8 032:516.777 - 0.621ms returns 4 (0x4)
T4CB8 032:516.846 JLINK_ReadMemEx(0x40022020, 0x4 Bytes, Flags = 0x02000004)
T4CB8 032:516.873   CPU_ReadMem(4 bytes @ 0x40022020)
T4CB8 032:517.423   Data:  FF FF FF FF
T4CB8 032:517.458 - 0.622ms returns 4 (0x4)
T4CB8 032:517.527 JLINK_ReadMemEx(0x40022020, 0x4 Bytes, Flags = 0x02000004)
T4CB8 032:517.554   CPU_ReadMem(4 bytes @ 0x40022020)
T4CB8 032:518.234   Data:  FF FF FF FF
T4CB8 032:518.270 - 0.752ms returns 4 (0x4)
T4CB8 036:263.769 JLINK_HasError()
T4CB8 036:263.806 JLINK_ReadReg(R0)
T4CB8 036:264.474 - 0.684ms returns 0x00000139
T4CB8 036:264.552 JLINK_ReadReg(R1)
T4CB8 036:264.576 - 0.034ms returns 0xE000E000
T4CB8 036:264.598 JLINK_ReadReg(R2)
T4CB8 036:264.619 - 0.030ms returns 0x00028000
T4CB8 036:264.640 JLINK_ReadReg(R3)
T4CB8 036:264.660 - 0.030ms returns 0x0800153D
T4CB8 036:264.682 JLINK_ReadReg(R4)
T4CB8 036:264.702 - 0.030ms returns 0x40010C00
T4CB8 036:264.724 JLINK_ReadReg(R5)
T4CB8 036:264.744 - 0.029ms returns 0x00000404
T4CB8 036:264.767 JLINK_ReadReg(R6)
T4CB8 036:264.794 - 0.047ms returns 0x000003E8
T4CB8 036:264.837 JLINK_ReadReg(R7)
T4CB8 036:264.869 - 0.045ms returns 0x00000000
T4CB8 036:264.895 JLINK_ReadReg(R8)
T4CB8 036:264.916 - 0.030ms returns 0x40010C00
T4CB8 036:264.937 JLINK_ReadReg(R9)
T4CB8 036:264.957 - 0.030ms returns 0x20000160
T4CB8 036:264.979 JLINK_ReadReg(R10)
T4CB8 036:264.999 - 0.030ms returns 0x00000000
T4CB8 036:265.021 JLINK_ReadReg(R11)
T4CB8 036:265.041 - 0.029ms returns 0x00000000
T4CB8 036:265.062 JLINK_ReadReg(R12)
T4CB8 036:265.082 - 0.029ms returns 0x00000008
T4CB8 036:265.104 JLINK_ReadReg(R13 (SP))
T4CB8 036:265.124 - 0.030ms returns 0x20000408
T4CB8 036:265.146 JLINK_ReadReg(R14)
T4CB8 036:265.166 - 0.029ms returns 0xFFFFFFFF
T4CB8 036:265.187 JLINK_ReadReg(R15 (PC))
T4CB8 036:265.207 - 0.029ms returns 0x08000144
T4CB8 036:265.229 JLINK_ReadReg(XPSR)
T4CB8 036:265.249 - 0.029ms returns 0x01000000
T4CB8 036:265.270 JLINK_ReadReg(MSP)
T4CB8 036:265.290 - 0.029ms returns 0x20000408
T4CB8 036:265.312 JLINK_ReadReg(PSP)
T4CB8 036:265.332 - 0.029ms returns 0x20001000
T4CB8 036:265.353 JLINK_ReadReg(CFBP)
T4CB8 036:265.373 - 0.029ms returns 0x00000000
T4CB8 036:299.755 JLINK_ReadMemEx(0x08031000, 0x227 Bytes, Flags = 0x02000000)
T4CB8 036:299.806   CPU_ReadMem(576 bytes @ 0x08031000)
T4CB8 036:303.172    -- Updating C cache (576 bytes @ 0x08031000)
T4CB8 036:303.231    -- Read from C cache (551 bytes @ 0x08031000)
T4CB8 036:303.274   Data:  78 56 00 00 00 00 FF FF FF FF FF FF FF FF FF FF ...
T4CB8 036:303.315 - 3.570ms returns 551 (0x227)
T6BE4 036:334.618 JLINK_ReadMemEx(0x08000144, 0x2 Bytes, Flags = 0x02000000)
T6BE4 036:334.661    -- Read from C cache (2 bytes @ 0x08000144)
T6BE4 036:334.693   Data:  06 48
T6BE4 036:334.724 - 0.116ms returns 2 (0x2)
T6BE4 036:334.748 JLINK_HasError()
T6BE4 036:334.778 JLINK_SetBPEx(Addr = 0x08001554, Type = 0xFFFFFFF2)
T6BE4 036:334.802 - 0.035ms returns 0x00000001
T6BE4 036:334.826 JLINK_HasError()
T6BE4 036:334.848 JLINK_SetBPEx(Addr = 0x08001670, Type = 0xFFFFFFF2)
T6BE4 036:334.870 - 0.032ms returns 0x00000002
T6BE4 036:334.892 JLINK_HasError()
T6BE4 036:334.914 JLINK_HasError()
T6BE4 036:334.938 JLINK_Go()
T6BE4 036:335.000   CPU_WriteMem(4 bytes @ 0xE0002000)
T6BE4 036:335.686   CPU_WriteMem(4 bytes @ 0xE0002000)
T6BE4 036:336.239   CPU_ReadMem(4 bytes @ 0xE0001000)
T6BE4 036:336.809   CPU_WriteMem(4 bytes @ 0xE0002008)
T6BE4 036:336.862   CPU_WriteMem(4 bytes @ 0xE000200C)
T6BE4 036:336.904   CPU_WriteMem(4 bytes @ 0xE0002010)
T6BE4 036:336.946   CPU_WriteMem(4 bytes @ 0xE0002014)
T6BE4 036:336.986   CPU_WriteMem(4 bytes @ 0xE0002018)
T6BE4 036:337.027   CPU_WriteMem(4 bytes @ 0xE000201C)
T6BE4 036:338.412   CPU_WriteMem(4 bytes @ 0xE0001004)
T6BE4 036:339.688 - 4.783ms
T6BE4 036:440.379 JLINK_HasError()
T6BE4 036:440.430 JLINK_IsHalted()
T6BE4 036:443.268 - 2.854ms returns TRUE
T6BE4 036:443.352 JLINK_HasError()
T6BE4 036:443.379 JLINK_Halt()
T6BE4 036:443.405 - 0.040ms returns 0x00
T6BE4 036:443.436 JLINK_IsHalted()
T6BE4 036:443.464 - 0.044ms returns TRUE
T6BE4 036:443.542 JLINK_IsHalted()
T6BE4 036:443.578 - 0.059ms returns TRUE
T6BE4 036:443.623 JLINK_IsHalted()
T6BE4 036:443.651 - 0.044ms returns TRUE
T6BE4 036:443.712 JLINK_HasError()
T6BE4 036:443.771 JLINK_ReadReg(R15 (PC))
T6BE4 036:443.822 - 0.076ms returns 0x08001554
T6BE4 036:443.869 JLINK_ReadReg(XPSR)
T6BE4 036:443.903 - 0.065ms returns 0x61000000
T6BE4 036:443.984 JLINK_HasError()
T6BE4 036:444.036 JLINK_ClrBPEx(BPHandle = 0x00000001)
T6BE4 036:444.070 - 0.051ms returns 0x00
T6BE4 036:444.103 JLINK_HasError()
T6BE4 036:444.135 JLINK_ClrBPEx(BPHandle = 0x00000002)
T6BE4 036:444.166 - 0.048ms returns 0x00
T6BE4 036:444.199 JLINK_HasError()
T6BE4 036:444.224 JLINK_HasError()
T6BE4 036:444.246 JLINK_ReadMemU32(0xE000ED30, 0x1 Items)
T6BE4 036:444.273   CPU_ReadMem(4 bytes @ 0xE000ED30)
T6BE4 036:445.060   Data:  02 00 00 00
T6BE4 036:445.110 - 0.877ms returns 1 (0x1)
T6BE4 036:445.208 JLINK_ReadMemU32(0xE0001028, 0x1 Items)
T6BE4 036:445.249   CPU_ReadMem(4 bytes @ 0xE0001028)
T6BE4 036:445.971   Data:  00 00 00 00
T6BE4 036:446.035   Debug reg: DWT_FUNC[0]
T6BE4 036:446.066 - 0.868ms returns 1 (0x1)
T6BE4 036:446.140 JLINK_ReadMemU32(0xE0001038, 0x1 Items)
T6BE4 036:446.168   CPU_ReadMem(4 bytes @ 0xE0001038)
T6BE4 036:446.795   Data:  00 02 00 00
T6BE4 036:446.833   Debug reg: DWT_FUNC[1]
T6BE4 036:446.864 - 0.736ms returns 1 (0x1)
T6BE4 036:446.944 JLINK_ReadMemU32(0xE0001048, 0x1 Items)
T6BE4 036:446.973   CPU_ReadMem(4 bytes @ 0xE0001048)
T6BE4 036:447.656   Data:  00 00 00 00
T6BE4 036:447.696   Debug reg: DWT_FUNC[2]
T6BE4 036:447.726 - 0.793ms returns 1 (0x1)
T6BE4 036:447.820 JLINK_ReadMemU32(0xE0001058, 0x1 Items)
T6BE4 036:447.858   CPU_ReadMem(4 bytes @ 0xE0001058)
T6BE4 036:448.459   Data:  00 00 00 00
T6BE4 036:448.509   Debug reg: DWT_FUNC[3]
T6BE4 036:448.538 - 0.728ms returns 1 (0x1)
T6BE4 036:448.654 JLINK_HasError()
T6BE4 036:448.682 JLINK_ReadReg(R0)
T6BE4 036:448.705 - 0.033ms returns 0x08001555
T6BE4 036:448.728 JLINK_ReadReg(R1)
T6BE4 036:448.749 - 0.030ms returns 0x20000408
T6BE4 036:448.771 JLINK_ReadReg(R2)
T6BE4 036:448.792 - 0.030ms returns 0x00000000
T6BE4 036:448.813 JLINK_ReadReg(R3)
T6BE4 036:448.834 - 0.030ms returns 0x08000C79
T6BE4 036:448.856 JLINK_ReadReg(R4)
T6BE4 036:448.882 - 0.036ms returns 0x08001A80
T6BE4 036:448.904 JLINK_ReadReg(R5)
T6BE4 036:448.924 - 0.030ms returns 0x08001A80
T6BE4 036:448.946 JLINK_ReadReg(R6)
T6BE4 036:448.967 - 0.030ms returns 0x000003E8
T6BE4 036:448.988 JLINK_ReadReg(R7)
T6BE4 036:449.008 - 0.030ms returns 0x00000000
T6BE4 036:449.030 JLINK_ReadReg(R8)
T6BE4 036:449.050 - 0.030ms returns 0x40010C00
T6BE4 036:449.072 JLINK_ReadReg(R9)
T6BE4 036:449.092 - 0.030ms returns 0x20000160
T6BE4 036:449.114 JLINK_ReadReg(R10)
T6BE4 036:449.134 - 0.030ms returns 0x00000000
T6BE4 036:449.156 JLINK_ReadReg(R11)
T6BE4 036:449.176 - 0.030ms returns 0x00000000
T6BE4 036:449.198 JLINK_ReadReg(R12)
T6BE4 036:449.218 - 0.029ms returns 0x00000008
T6BE4 036:449.240 JLINK_ReadReg(R13 (SP))
T6BE4 036:449.260 - 0.030ms returns 0x20000408
T6BE4 036:449.284 JLINK_ReadReg(R14)
T6BE4 036:449.304 - 0.030ms returns 0x080005C9
T6BE4 036:449.326 JLINK_ReadReg(R15 (PC))
T6BE4 036:449.346 - 0.030ms returns 0x08001554
T6BE4 036:449.368 JLINK_ReadReg(XPSR)
T6BE4 036:449.388 - 0.030ms returns 0x61000000
T6BE4 036:449.410 JLINK_ReadReg(MSP)
T6BE4 036:449.431 - 0.031ms returns 0x20000408
T6BE4 036:449.453 JLINK_ReadReg(PSP)
T6BE4 036:449.473 - 0.031ms returns 0x20001000
T6BE4 036:449.505 JLINK_ReadReg(CFBP)
T6BE4 036:449.528 - 0.034ms returns 0x00000000
T4CB8 036:449.741 JLINK_ReadMemEx(0x00000000, 0x4 Bytes, Flags = 0x02000000)
T4CB8 036:449.775   CPU_ReadMem(4 bytes @ 0x40023844)
T4CB8 036:450.494   CPU_ReadMem(64 bytes @ 0x08000000)
T4CB8 036:451.533    -- Updating C cache (64 bytes @ 0x08000000)
T4CB8 036:451.573    -- Read from C cache (4 bytes @ 0x08000000)
T4CB8 036:451.604   Data:  08 04 00 20
T4CB8 036:451.635 - 1.904ms returns 4 (0x4)
T4CB8 036:461.141 JLINK_HasError()
T4CB8 036:461.195 JLINK_ReadMemU32(0xE0001004, 0x1 Items)
T4CB8 036:461.235   CPU_ReadMem(4 bytes @ 0xE0001004)
T4CB8 036:462.068   Data:  59 06 00 00
T4CB8 036:462.120   Debug reg: DWT_CYCCNT
T4CB8 036:462.160 - 0.979ms returns 1 (0x1)
T4CB8 036:462.739 JLINK_ReadMemEx(0x08031000, 0x227 Bytes, Flags = 0x02000000)
T4CB8 036:462.785   CPU_ReadMem(576 bytes @ 0x08031000)
T4CB8 036:466.081    -- Updating C cache (576 bytes @ 0x08031000)
T4CB8 036:466.125    -- Read from C cache (551 bytes @ 0x08031000)
T4CB8 036:466.159   Data:  78 56 00 00 00 00 FF FF FF FF FF FF FF FF FF FF ...
T4CB8 036:466.190 - 3.460ms returns 551 (0x227)
T4CB8 036:468.283 JLINK_ReadMemEx(0x40022000, 0x4 Bytes, Flags = 0x02000004)
T4CB8 036:468.327   CPU_ReadMem(4 bytes @ 0x40022000)
T4CB8 036:469.066   Data:  30 00 00 00
T4CB8 036:469.107 - 0.833ms returns 4 (0x4)
T4CB8 036:469.190 JLINK_ReadMemEx(0x40022000, 0x4 Bytes, Flags = 0x02000004)
T4CB8 036:469.226   CPU_ReadMem(4 bytes @ 0x40022000)
T4CB8 036:469.833   Data:  30 00 00 00
T4CB8 036:469.871 - 0.692ms returns 4 (0x4)
T4CB8 036:469.951 JLINK_ReadMemEx(0x4002200C, 0x4 Bytes, Flags = 0x02000004)
T4CB8 036:469.980   CPU_ReadMem(4 bytes @ 0x4002200C)
T4CB8 036:471.007   Data:  00 00 00 00
T4CB8 036:471.072 - 1.135ms returns 4 (0x4)
T4CB8 036:471.191 JLINK_ReadMemEx(0x4002200C, 0x4 Bytes, Flags = 0x02000004)
T4CB8 036:471.247   CPU_ReadMem(4 bytes @ 0x4002200C)
T4CB8 036:471.976   Data:  00 00 00 00
T4CB8 036:472.030 - 0.853ms returns 4 (0x4)
T4CB8 036:472.131 JLINK_ReadMemEx(0x40022010, 0x4 Bytes, Flags = 0x02000004)
T4CB8 036:472.172   CPU_ReadMem(4 bytes @ 0x40022010)
T4CB8 036:472.893   Data:  80 00 00 00
T4CB8 036:472.943 - 0.823ms returns 4 (0x4)
T4CB8 036:473.032 JLINK_ReadMemEx(0x40022010, 0x4 Bytes, Flags = 0x02000004)
T4CB8 036:473.065   CPU_ReadMem(4 bytes @ 0x40022010)
T4CB8 036:473.687   Data:  80 00 00 00
T4CB8 036:473.735 - 0.714ms returns 4 (0x4)
T4CB8 036:473.830 JLINK_ReadMemEx(0x4002201C, 0x4 Bytes, Flags = 0x02000004)
T4CB8 036:473.865   CPU_ReadMem(4 bytes @ 0x4002201C)
T4CB8 036:474.856   Data:  FC FF FF 03
T4CB8 036:474.909 - 1.093ms returns 4 (0x4)
T4CB8 036:475.025 JLINK_ReadMemEx(0x4002201C, 0x4 Bytes, Flags = 0x02000004)
T4CB8 036:475.069   CPU_ReadMem(4 bytes @ 0x4002201C)
T4CB8 036:475.804   Data:  FC FF FF 03
T4CB8 036:475.846 - 0.831ms returns 4 (0x4)
T4CB8 036:475.928 JLINK_ReadMemEx(0x40022020, 0x4 Bytes, Flags = 0x02000004)
T4CB8 036:475.959   CPU_ReadMem(4 bytes @ 0x40022020)
T4CB8 036:476.585   Data:  FF FF FF FF
T4CB8 036:476.622 - 0.704ms returns 4 (0x4)
T4CB8 036:476.691 JLINK_ReadMemEx(0x40022020, 0x4 Bytes, Flags = 0x02000004)
T4CB8 036:476.719   CPU_ReadMem(4 bytes @ 0x40022020)
T4CB8 036:477.387   Data:  FF FF FF FF
T4CB8 036:477.426 - 0.744ms returns 4 (0x4)
T4CB8 036:480.419 JLINK_ReadMemEx(0x08001454, 0x3C Bytes, Flags = 0x02000000)
T4CB8 036:480.457   CPU_ReadMem(128 bytes @ 0x08001440)
T4CB8 036:481.774    -- Updating C cache (128 bytes @ 0x08001440)
T4CB8 036:481.815    -- Read from C cache (60 bytes @ 0x08001454)
T4CB8 036:481.847   Data:  14 98 00 78 18 B1 5A 46 17 99 90 47 6D 1C E0 03 ...
T4CB8 036:481.877 - 1.469ms returns 60 (0x3C)
T4CB8 036:481.963 JLINK_ReadMemEx(0x08001490, 0x3C Bytes, Flags = 0x02000000)
T4CB8 036:481.991   CPU_ReadMem(64 bytes @ 0x080014C0)
T4CB8 036:482.954    -- Updating C cache (64 bytes @ 0x080014C0)
T4CB8 036:482.996    -- Read from C cache (60 bytes @ 0x08001490)
T4CB8 036:483.028   Data:  5A 46 90 47 04 98 05 F1 01 05 40 1C 04 90 01 98 ...
T4CB8 036:483.058 - 1.105ms returns 60 (0x3C)
T4CB8 036:483.146 JLINK_ReadMemEx(0x080014CC, 0x3C Bytes, Flags = 0x02000000)
T4CB8 036:483.175   CPU_ReadMem(64 bytes @ 0x08001500)
T4CB8 036:484.221    -- Updating C cache (64 bytes @ 0x08001500)
T4CB8 036:484.277    -- Read from C cache (60 bytes @ 0x080014CC)
T4CB8 036:484.321   Data:  A8 F1 01 08 F4 DC 5B 46 21 46 17 9A 05 98 AB E6 ...
T4CB8 036:484.361 - 1.228ms returns 60 (0x3C)
T4CB8 036:484.484 JLINK_ReadMemEx(0x08001508, 0x3C Bytes, Flags = 0x02000000)
T4CB8 036:484.523   CPU_ReadMem(64 bytes @ 0x08001540)
T4CB8 036:485.547    -- Updating C cache (64 bytes @ 0x08001540)
T4CB8 036:485.589    -- Read from C cache (60 bytes @ 0x08001508)
T4CB8 036:485.621   Data:  BD E8 F0 81 2D E9 F0 41 04 46 00 25 1E 46 90 46 ...
T4CB8 036:485.652 - 1.178ms returns 60 (0x3C)
T4CB8 036:485.744 JLINK_ReadMemEx(0x08001544, 0x3C Bytes, Flags = 0x02000000)
T4CB8 036:485.770    -- Read from C cache (60 bytes @ 0x08001544)
T4CB8 036:485.802   Data:  02 4A C1 B2 12 1D 11 60 70 47 00 00 00 38 01 40 ...
T4CB8 036:485.831 - 0.097ms returns 60 (0x3C)
T6BE4 042:064.363 JLINK_ReadMemEx(0x08001554, 0x2 Bytes, Flags = 0x02000000)
T6BE4 042:064.411    -- Read from C cache (2 bytes @ 0x08001554)
T6BE4 042:064.443   Data:  8C B0
T6BE4 042:064.473 - 0.120ms returns 2 (0x2)
T6BE4 042:064.497 JLINK_HasError()
T6BE4 042:064.522 JLINK_SetBPEx(Addr = 0x08001670, Type = 0xFFFFFFF2)
T6BE4 042:064.547 - 0.035ms returns 0x00000003
T6BE4 042:064.570 JLINK_HasError()
T6BE4 042:064.592 JLINK_HasError()
T6BE4 042:064.614 JLINK_Go()
T6BE4 042:065.384   CPU_WriteMem(4 bytes @ 0xE0002000)
T6BE4 042:066.068   CPU_ReadMem(4 bytes @ 0xE0001000)
T6BE4 042:066.677   CPU_WriteMem(4 bytes @ 0xE0002008)
T6BE4 042:066.723   CPU_WriteMem(4 bytes @ 0xE000200C)
T6BE4 042:068.156 - 3.573ms
T6BE4 042:169.194 JLINK_HasError()
T6BE4 042:169.243 JLINK_IsHalted()
T6BE4 042:170.241 - 1.015ms returns FALSE
T6BE4 042:270.896 JLINK_HasError()
T6BE4 042:270.943 JLINK_IsHalted()
T6BE4 042:271.983 - 1.085ms returns FALSE
T6BE4 042:373.256 JLINK_HasError()
T6BE4 042:373.307 JLINK_IsHalted()
T6BE4 042:374.970 - 1.696ms returns FALSE
T6BE4 042:475.676 JLINK_HasError()
T6BE4 042:475.730 JLINK_IsHalted()
T6BE4 042:476.490 - 0.783ms returns FALSE
T6BE4 042:577.585 JLINK_HasError()
T6BE4 042:577.637 JLINK_IsHalted()
T6BE4 042:578.381 - 0.772ms returns FALSE
T6BE4 042:679.319 JLINK_HasError()
T6BE4 042:679.379 JLINK_IsHalted()
T6BE4 042:680.179 - 0.821ms returns FALSE
T6BE4 042:781.033 JLINK_HasError()
T6BE4 042:781.080 JLINK_IsHalted()
T6BE4 042:781.847 - 0.787ms returns FALSE
T6BE4 042:882.383 JLINK_HasError()
T6BE4 042:882.425 JLINK_IsHalted()
T6BE4 042:883.223 - 0.829ms returns FALSE
T6BE4 042:984.114 JLINK_HasError()
T6BE4 042:984.164 JLINK_IsHalted()
T6BE4 042:984.874 - 0.730ms returns FALSE
T6BE4 043:085.842 JLINK_HasError()
T6BE4 043:085.889 JLINK_IsHalted()
T6BE4 043:086.677 - 0.807ms returns FALSE
T6BE4 043:187.154 JLINK_HasError()
T6BE4 043:187.195 JLINK_IsHalted()
T6BE4 043:190.418 - 3.241ms returns TRUE
T6BE4 043:190.502 JLINK_HasError()
T6BE4 043:190.528 JLINK_Halt()
T6BE4 043:190.549 - 0.030ms returns 0x00
T6BE4 043:190.571 JLINK_IsHalted()
T6BE4 043:190.592 - 0.030ms returns TRUE
T6BE4 043:190.614 JLINK_IsHalted()
T6BE4 043:190.634 - 0.030ms returns TRUE
T6BE4 043:190.656 JLINK_IsHalted()
T6BE4 043:190.675 - 0.029ms returns TRUE
T6BE4 043:190.698 JLINK_HasError()
T6BE4 043:190.721 JLINK_ReadReg(R15 (PC))
T6BE4 043:190.744 - 0.033ms returns 0x08001670
T6BE4 043:190.767 JLINK_ReadReg(XPSR)
T6BE4 043:190.788 - 0.031ms returns 0x61000000
T6BE4 043:190.815 JLINK_HasError()
T6BE4 043:190.840 JLINK_ClrBPEx(BPHandle = 0x00000003)
T6BE4 043:190.861 - 0.031ms returns 0x00
T6BE4 043:190.883 JLINK_HasError()
T6BE4 043:190.905 JLINK_HasError()
T6BE4 043:190.926 JLINK_ReadMemU32(0xE000ED30, 0x1 Items)
T6BE4 043:190.952   CPU_ReadMem(4 bytes @ 0xE000ED30)
T6BE4 043:191.647   Data:  02 00 00 00
T6BE4 043:191.695 - 0.778ms returns 1 (0x1)
T6BE4 043:191.767 JLINK_ReadMemU32(0xE0001028, 0x1 Items)
T6BE4 043:191.795   CPU_ReadMem(4 bytes @ 0xE0001028)
T6BE4 043:192.565   Data:  00 00 00 00
T6BE4 043:192.604   Debug reg: DWT_FUNC[0]
T6BE4 043:192.639 - 0.886ms returns 1 (0x1)
T6BE4 043:192.805 JLINK_ReadMemU32(0xE0001038, 0x1 Items)
T6BE4 043:192.858   CPU_ReadMem(4 bytes @ 0xE0001038)
T6BE4 043:193.609   Data:  00 02 00 00
T6BE4 043:193.648   Debug reg: DWT_FUNC[1]
T6BE4 043:193.678 - 0.883ms returns 1 (0x1)
T6BE4 043:193.756 JLINK_ReadMemU32(0xE0001048, 0x1 Items)
T6BE4 043:193.786   CPU_ReadMem(4 bytes @ 0xE0001048)
T6BE4 043:194.571   Data:  00 00 00 00
T6BE4 043:194.610   Debug reg: DWT_FUNC[2]
T6BE4 043:194.640 - 0.893ms returns 1 (0x1)
T6BE4 043:194.715 JLINK_ReadMemU32(0xE0001058, 0x1 Items)
T6BE4 043:194.743   CPU_ReadMem(4 bytes @ 0xE0001058)
T6BE4 043:195.488   Data:  00 00 00 00
T6BE4 043:195.524   Debug reg: DWT_FUNC[3]
T6BE4 043:195.554 - 0.848ms returns 1 (0x1)
T6BE4 043:195.656 JLINK_HasError()
T6BE4 043:195.682 JLINK_ReadReg(R0)
T6BE4 043:195.705 - 0.033ms returns 0x08001A5C
T6BE4 043:195.727 JLINK_ReadReg(R1)
T6BE4 043:195.748 - 0.030ms returns 0x0000000A
T6BE4 043:195.770 JLINK_ReadReg(R2)
T6BE4 043:195.790 - 0.031ms returns 0x40013804
T6BE4 043:195.813 JLINK_ReadReg(R3)
T6BE4 043:195.834 - 0.030ms returns 0x0800153D
T6BE4 043:195.856 JLINK_ReadReg(R4)
T6BE4 043:195.877 - 0.030ms returns 0x40010C00
T6BE4 043:195.899 JLINK_ReadReg(R5)
T6BE4 043:195.919 - 0.030ms returns 0x00000404
T6BE4 043:195.941 JLINK_ReadReg(R6)
T6BE4 043:195.961 - 0.030ms returns 0x000003E8
T6BE4 043:195.983 JLINK_ReadReg(R7)
T6BE4 043:196.003 - 0.030ms returns 0x00000000
T6BE4 043:196.025 JLINK_ReadReg(R8)
T6BE4 043:196.046 - 0.030ms returns 0x40010C00
T6BE4 043:196.068 JLINK_ReadReg(R9)
T6BE4 043:196.088 - 0.030ms returns 0x20000160
T6BE4 043:196.111 JLINK_ReadReg(R10)
T6BE4 043:196.131 - 0.030ms returns 0x00000000
T6BE4 043:196.153 JLINK_ReadReg(R11)
T6BE4 043:196.173 - 0.030ms returns 0x00000000
T6BE4 043:196.195 JLINK_ReadReg(R12)
T6BE4 043:196.216 - 0.030ms returns 0x00000008
T6BE4 043:196.238 JLINK_ReadReg(R13 (SP))
T6BE4 043:196.258 - 0.031ms returns 0x200003D8
T6BE4 043:196.281 JLINK_ReadReg(R14)
T6BE4 043:196.301 - 0.030ms returns 0x08000F4B
T6BE4 043:196.323 JLINK_ReadReg(R15 (PC))
T6BE4 043:196.343 - 0.030ms returns 0x08001670
T6BE4 043:196.365 JLINK_ReadReg(XPSR)
T6BE4 043:196.386 - 0.030ms returns 0x61000000
T6BE4 043:196.408 JLINK_ReadReg(MSP)
T6BE4 043:196.428 - 0.030ms returns 0x200003D8
T6BE4 043:196.450 JLINK_ReadReg(PSP)
T6BE4 043:196.471 - 0.030ms returns 0x20001000
T6BE4 043:196.493 JLINK_ReadReg(CFBP)
T6BE4 043:196.513 - 0.030ms returns 0x00000000
T4CB8 043:201.451 JLINK_ReadMemEx(0x00000000, 0x4 Bytes, Flags = 0x02000000)
T4CB8 043:201.499   CPU_ReadMem(4 bytes @ 0x40023844)
T4CB8 043:202.267   CPU_ReadMem(64 bytes @ 0x08000000)
T4CB8 043:203.082    -- Updating C cache (64 bytes @ 0x08000000)
T4CB8 043:203.119    -- Read from C cache (4 bytes @ 0x08000000)
T4CB8 043:203.150   Data:  08 04 00 20
T4CB8 043:203.180 - 1.739ms returns 4 (0x4)
T4CB8 043:211.533 JLINK_HasError()
T4CB8 043:211.575 JLINK_ReadMemU32(0xE0001004, 0x1 Items)
T4CB8 043:211.607   CPU_ReadMem(4 bytes @ 0xE0001004)
T4CB8 043:212.458   Data:  4F 4B 79 04
T4CB8 043:212.498   Debug reg: DWT_CYCCNT
T4CB8 043:212.527 - 0.962ms returns 1 (0x1)
T4CB8 043:212.830 JLINK_ReadMemEx(0x08031000, 0x227 Bytes, Flags = 0x02000000)
T4CB8 043:212.860   CPU_ReadMem(576 bytes @ 0x08031000)
T4CB8 043:216.160    -- Updating C cache (576 bytes @ 0x08031000)
T4CB8 043:216.213    -- Read from C cache (551 bytes @ 0x08031000)
T4CB8 043:216.246   Data:  78 56 00 00 00 00 FF FF FF FF FF FF FF FF FF FF ...
T4CB8 043:216.277 - 3.456ms returns 551 (0x227)
T4CB8 043:218.336 JLINK_ReadMemEx(0x40022000, 0x4 Bytes, Flags = 0x02000004)
T4CB8 043:218.375   CPU_ReadMem(4 bytes @ 0x40022000)
T4CB8 043:219.054   Data:  32 00 00 00
T4CB8 043:219.092 - 0.766ms returns 4 (0x4)
T4CB8 043:219.173 JLINK_ReadMemEx(0x40022000, 0x4 Bytes, Flags = 0x02000004)
T4CB8 043:219.201   CPU_ReadMem(4 bytes @ 0x40022000)
T4CB8 043:219.921   Data:  32 00 00 00
T4CB8 043:219.965 - 0.803ms returns 4 (0x4)
T4CB8 043:220.048 JLINK_ReadMemEx(0x4002200C, 0x4 Bytes, Flags = 0x02000004)
T4CB8 043:220.078   CPU_ReadMem(4 bytes @ 0x4002200C)
T4CB8 043:220.719   Data:  00 00 00 00
T4CB8 043:220.766 - 0.729ms returns 4 (0x4)
T4CB8 043:220.846 JLINK_ReadMemEx(0x4002200C, 0x4 Bytes, Flags = 0x02000004)
T4CB8 043:220.875   CPU_ReadMem(4 bytes @ 0x4002200C)
T4CB8 043:221.497   Data:  00 00 00 00
T4CB8 043:221.534 - 0.698ms returns 4 (0x4)
T4CB8 043:221.613 JLINK_ReadMemEx(0x40022010, 0x4 Bytes, Flags = 0x02000004)
T4CB8 043:221.641   CPU_ReadMem(4 bytes @ 0x40022010)
T4CB8 043:222.392   Data:  80 00 00 00
T4CB8 043:222.430 - 0.827ms returns 4 (0x4)
T4CB8 043:222.507 JLINK_ReadMemEx(0x40022010, 0x4 Bytes, Flags = 0x02000004)
T4CB8 043:222.535   CPU_ReadMem(4 bytes @ 0x40022010)
T4CB8 043:223.196   Data:  80 00 00 00
T4CB8 043:223.234 - 0.737ms returns 4 (0x4)
T4CB8 043:223.312 JLINK_ReadMemEx(0x4002201C, 0x4 Bytes, Flags = 0x02000004)
T4CB8 043:223.340   CPU_ReadMem(4 bytes @ 0x4002201C)
T4CB8 043:224.057   Data:  FC FF FF 03
T4CB8 043:224.099 - 0.797ms returns 4 (0x4)
T4CB8 043:224.178 JLINK_ReadMemEx(0x4002201C, 0x4 Bytes, Flags = 0x02000004)
T4CB8 043:224.208   CPU_ReadMem(4 bytes @ 0x4002201C)
T4CB8 043:224.839   Data:  FC FF FF 03
T4CB8 043:224.878 - 0.709ms returns 4 (0x4)
T4CB8 043:224.951 JLINK_ReadMemEx(0x40022020, 0x4 Bytes, Flags = 0x02000004)
T4CB8 043:224.980   CPU_ReadMem(4 bytes @ 0x40022020)
T4CB8 043:225.546   Data:  FF FF FF FF
T4CB8 043:225.582 - 0.640ms returns 4 (0x4)
T4CB8 043:225.650 JLINK_ReadMemEx(0x40022020, 0x4 Bytes, Flags = 0x02000004)
T4CB8 043:225.677   CPU_ReadMem(4 bytes @ 0x40022020)
T4CB8 043:226.266   Data:  FF FF FF FF
T4CB8 043:226.302 - 0.662ms returns 4 (0x4)
T4CB8 043:236.070 JLINK_ReadMemEx(0x0800166E, 0x2 Bytes, Flags = 0x02000000)
T4CB8 043:236.148   CPU_ReadMem(64 bytes @ 0x08001640)
T4CB8 043:237.204    -- Updating C cache (64 bytes @ 0x08001640)
T4CB8 043:237.244    -- Read from C cache (2 bytes @ 0x0800166E)
T4CB8 043:237.275   Data:  8D 48
T4CB8 043:237.305 - 1.246ms returns 2 (0x2)
T4CB8 043:237.386 JLINK_ReadMemEx(0x08001670, 0x3C Bytes, Flags = 0x02000000)
T4CB8 043:237.413   CPU_ReadMem(64 bytes @ 0x08001680)
T4CB8 043:238.489    -- Updating C cache (64 bytes @ 0x08001680)
T4CB8 043:238.527    -- Read from C cache (60 bytes @ 0x08001670)
T4CB8 043:238.559   Data:  8D 4D 01 22 00 68 0A 90 0A A9 28 46 00 F0 82 F9 ...
T4CB8 043:238.589 - 1.212ms returns 60 (0x3C)
T6BE4 053:806.539 JLINK_ReadMemEx(0x08001670, 0x2 Bytes, Flags = 0x02000000)
T6BE4 053:806.581    -- Read from C cache (2 bytes @ 0x08001670)
T6BE4 053:806.613   Data:  8D 4D
T6BE4 053:806.644 - 0.115ms returns 2 (0x2)
T6BE4 053:806.673 JLINK_HasError()
T6BE4 053:806.706 JLINK_Step()
T6BE4 053:807.906    -- Read from C cache (2 bytes @ 0x08001670)
T6BE4 053:807.946   CPU_ReadMem(4 bytes @ 0xE000ED18)
T6BE4 053:808.701   CPU_WriteMem(4 bytes @ 0xE000ED18)
T6BE4 053:809.514   CPU_ReadMem(4 bytes @ 0xE000ED18)
T6BE4 053:810.294   CPU_WriteMem(4 bytes @ 0xE000ED18)
T6BE4 053:811.501   CPU_ReadMem(64 bytes @ 0x08001880)
T6BE4 053:813.221    -- Updating C cache (64 bytes @ 0x08001880)
T6BE4 053:813.261    -- Read from C cache (4 bytes @ 0x080018A8)
T6BE4 053:813.294   -- Simulated
T6BE4 053:813.325 - 6.629ms returns 0
T6BE4 053:813.402 JLINK_HasError()
T6BE4 053:813.428 JLINK_ReadReg(R15 (PC))
T6BE4 053:813.452 - 0.034ms returns 0x08001672
T6BE4 053:813.475 JLINK_ReadReg(XPSR)
T6BE4 053:813.497 - 0.032ms returns 0x61000000
T6BE4 053:813.530 JLINK_HasError()
T6BE4 053:813.552 JLINK_Step()
T6BE4 053:813.575    -- Read from C cache (2 bytes @ 0x08001672)
T6BE4 053:813.606   -- Simulated
T6BE4 053:813.636 - 0.093ms returns 0
T6BE4 053:813.658 JLINK_HasError()
T6BE4 053:813.680 JLINK_ReadReg(R15 (PC))
T6BE4 053:813.701 - 0.031ms returns 0x08001674
T6BE4 053:813.724 JLINK_ReadReg(XPSR)
T6BE4 053:813.744 - 0.030ms returns 0x21000000
T6BE4 053:813.768 JLINK_HasError()
T6BE4 053:813.790 JLINK_Step()
T6BE4 053:813.811    -- Read from C cache (2 bytes @ 0x08001674)
T6BE4 053:813.844   CPU_ReadMem(64 bytes @ 0x08001A40)
T6BE4 053:814.945    -- Updating C cache (64 bytes @ 0x08001A40)
T6BE4 053:814.982    -- Read from C cache (4 bytes @ 0x08001A5C)
T6BE4 053:815.013   -- Simulated
T6BE4 053:815.043 - 1.263ms returns 0
T6BE4 053:815.112 JLINK_HasError()
T6BE4 053:815.138 JLINK_ReadReg(R15 (PC))
T6BE4 053:815.164 - 0.036ms returns 0x08001676
T6BE4 053:815.186 JLINK_ReadReg(XPSR)
T6BE4 053:815.207 - 0.030ms returns 0x21000000
T6BE4 053:815.233 JLINK_HasError()
T6BE4 053:815.255 JLINK_Step()
T6BE4 053:815.277    -- Read from C cache (2 bytes @ 0x08001676)
T6BE4 053:815.312   CPU_WriteMem(4 bytes @ 0x20000400)
T6BE4 053:816.380   -- Simulated
T6BE4 053:816.419 - 1.174ms returns 0
T6BE4 053:816.493 JLINK_HasError()
T6BE4 053:816.518 JLINK_ReadReg(R15 (PC))
T6BE4 053:816.541 - 0.032ms returns 0x08001678
T6BE4 053:816.563 JLINK_ReadReg(XPSR)
T6BE4 053:816.584 - 0.030ms returns 0x21000000
T6BE4 053:816.610 JLINK_HasError()
T6BE4 053:816.632 JLINK_Step()
T6BE4 053:816.654    -- Read from C cache (2 bytes @ 0x08001678)
T6BE4 053:816.685   -- Simulated
T6BE4 053:816.714 - 0.091ms returns 0
T6BE4 053:816.735 JLINK_HasError()
T6BE4 053:816.757 JLINK_ReadReg(R15 (PC))
T6BE4 053:816.777 - 0.030ms returns 0x0800167A
T6BE4 053:816.799 JLINK_ReadReg(XPSR)
T6BE4 053:816.819 - 0.030ms returns 0x21000000
T6BE4 053:816.843 JLINK_ReadMemEx(0x0800167A, 0x2 Bytes, Flags = 0x02000000)
T6BE4 053:816.864    -- Read from C cache (2 bytes @ 0x0800167A)
T6BE4 053:816.894   Data:  28 46
T6BE4 053:816.923 - 0.090ms returns 2 (0x2)
T6BE4 053:816.945 JLINK_ReadMemEx(0x0800167C, 0x3C Bytes, Flags = 0x02000000)
T6BE4 053:816.966    -- Read from C cache (60 bytes @ 0x0800167C)
T6BE4 053:816.996   Data:  00 F0 82 F9 8A A0 FF F7 E1 FA 8B A0 29 68 FF F7 ...
T6BE4 053:817.025 - 0.089ms returns 60 (0x3C)
T6BE4 053:817.046 JLINK_ReadMemEx(0x0800167C, 0x2 Bytes, Flags = 0x02000000)
T6BE4 053:817.066    -- Read from C cache (2 bytes @ 0x0800167C)
T6BE4 053:817.096   Data:  00 F0
T6BE4 053:817.125 - 0.088ms returns 2 (0x2)
T6BE4 053:817.149 JLINK_HasError()
T6BE4 053:817.174 JLINK_Step()
T6BE4 053:817.205    -- Read from C cache (2 bytes @ 0x0800167A)
T6BE4 053:817.237   -- Simulated
T6BE4 053:817.267 - 0.102ms returns 0
T6BE4 053:817.292 JLINK_HasError()
T6BE4 053:817.326 JLINK_ReadReg(R15 (PC))
T6BE4 053:817.356 - 0.040ms returns 0x0800167C
T6BE4 053:817.381 JLINK_ReadReg(XPSR)
T6BE4 053:817.411 - 0.040ms returns 0x21000000
T6BE4 053:817.445 JLINK_ReadMemEx(0x0800167C, 0x3C Bytes, Flags = 0x02000000)
T6BE4 053:817.474    -- Read from C cache (60 bytes @ 0x0800167C)
T6BE4 053:817.504   Data:  00 F0 82 F9 8A A0 FF F7 E1 FA 8B A0 29 68 FF F7 ...
T6BE4 053:817.539 - 0.104ms returns 60 (0x3C)
T6BE4 053:817.562 JLINK_ReadMemEx(0x0800167C, 0x2 Bytes, Flags = 0x02000000)
T6BE4 053:817.583    -- Read from C cache (2 bytes @ 0x0800167C)
T6BE4 053:817.612   Data:  00 F0
T6BE4 053:817.642 - 0.089ms returns 2 (0x2)
T6BE4 053:817.664 JLINK_ReadMemEx(0x0800167E, 0x2 Bytes, Flags = 0x02000000)
T6BE4 053:817.684    -- Read from C cache (2 bytes @ 0x0800167E)
T6BE4 053:817.713   Data:  82 F9
T6BE4 053:817.742 - 0.088ms returns 2 (0x2)
T6BE4 053:818.085 JLINK_HasError()
T6BE4 053:818.112 JLINK_Step()
T6BE4 053:818.136    -- Read from C cache (2 bytes @ 0x0800167C)
T6BE4 053:818.181    -- Read from C cache (2 bytes @ 0x0800167E)
T6BE4 053:818.453   -- Simulated
T6BE4 053:818.489 - 0.386ms returns 0
T6BE4 053:818.513 JLINK_HasError()
T6BE4 053:818.536 JLINK_ReadReg(R15 (PC))
T6BE4 053:818.558 - 0.032ms returns 0x08001984
T6BE4 053:818.580 JLINK_ReadReg(XPSR)
T6BE4 053:818.600 - 0.030ms returns 0x21000000
T6BE4 053:818.661 JLINK_HasError()
T6BE4 053:818.684 JLINK_ReadReg(R0)
T6BE4 053:818.704 - 0.030ms returns 0x08031000
T6BE4 053:818.726 JLINK_ReadReg(R1)
T6BE4 053:818.746 - 0.029ms returns 0x20000400
T6BE4 053:818.767 JLINK_ReadReg(R2)
T6BE4 053:818.788 - 0.030ms returns 0x00000001
T6BE4 053:818.809 JLINK_ReadReg(R3)
T6BE4 053:818.829 - 0.030ms returns 0x0800153D
T6BE4 053:818.851 JLINK_ReadReg(R4)
T6BE4 053:818.871 - 0.029ms returns 0x40010C00
T6BE4 053:818.893 JLINK_ReadReg(R5)
T6BE4 053:818.913 - 0.029ms returns 0x08031000
T6BE4 053:818.934 JLINK_ReadReg(R6)
T6BE4 053:818.954 - 0.030ms returns 0x000003E8
T6BE4 053:818.976 JLINK_ReadReg(R7)
T6BE4 053:818.996 - 0.029ms returns 0x00000000
T6BE4 053:819.017 JLINK_ReadReg(R8)
T6BE4 053:819.037 - 0.030ms returns 0x40010C00
T6BE4 053:819.059 JLINK_ReadReg(R9)
T6BE4 053:819.079 - 0.029ms returns 0x20000160
T6BE4 053:819.100 JLINK_ReadReg(R10)
T6BE4 053:819.120 - 0.029ms returns 0x00000000
T6BE4 053:819.145 JLINK_ReadReg(R11)
T6BE4 053:819.176 - 0.043ms returns 0x00000000
T6BE4 053:819.204 JLINK_ReadReg(R12)
T6BE4 053:819.234 - 0.041ms returns 0x00000008
T6BE4 053:819.258 JLINK_ReadReg(R13 (SP))
T6BE4 053:819.279 - 0.030ms returns 0x200003D8
T6BE4 053:819.301 JLINK_ReadReg(R14)
T6BE4 053:819.321 - 0.030ms returns 0x08001681
T6BE4 053:819.342 JLINK_ReadReg(R15 (PC))
T6BE4 053:819.362 - 0.030ms returns 0x08001984
T6BE4 053:819.384 JLINK_ReadReg(XPSR)
T6BE4 053:819.404 - 0.030ms returns 0x21000000
T6BE4 053:819.426 JLINK_ReadReg(MSP)
T6BE4 053:819.446 - 0.030ms returns 0x200003D8
T6BE4 053:819.467 JLINK_ReadReg(PSP)
T6BE4 053:819.488 - 0.030ms returns 0x20001000
T6BE4 053:819.509 JLINK_ReadReg(CFBP)
T6BE4 053:819.529 - 0.029ms returns 0x00000000
T4CB8 053:820.194 JLINK_ReadMemEx(0x00000000, 0x1 Bytes, Flags = 0x02000000)
T4CB8 053:820.229   CPU_ReadMem(4 bytes @ 0x40023844)
T4CB8 053:821.225    -- Read from C cache (1 bytes @ 0x08000000)
T4CB8 053:821.263   Data:  08
T4CB8 053:821.294 - 1.109ms returns 1 (0x1)
T4CB8 053:821.369 JLINK_ReadMemEx(0x00000000, 0x2 Bytes, Flags = 0x02000000)
T4CB8 053:821.394    -- Read from C cache (2 bytes @ 0x08000000)
T4CB8 053:821.424   Data:  08 04
T4CB8 053:821.454 - 0.095ms returns 2 (0x2)
T4CB8 053:821.477 JLINK_ReadMemEx(0x00000000, 0x4 Bytes, Flags = 0x02000000)
T4CB8 053:821.499    -- Read from C cache (4 bytes @ 0x08000000)
T4CB8 053:821.529   Data:  08 04 00 20
T4CB8 053:821.559 - 0.091ms returns 4 (0x4)
T4CB8 053:833.926 JLINK_HasError()
T4CB8 053:833.976 JLINK_ReadMemU32(0xE0001004, 0x1 Items)
T4CB8 053:834.010   Data:  59 4B 79 04
T4CB8 053:834.041   Debug reg: DWT_CYCCNT
T4CB8 053:834.071 - 0.105ms returns 1 (0x1)
T4CB8 053:834.261 JLINK_ReadMemEx(0x08031000, 0x227 Bytes, Flags = 0x02000000)
T4CB8 053:834.289    -- Read from C cache (551 bytes @ 0x08031000)
T4CB8 053:834.321   Data:  78 56 00 00 00 00 FF FF FF FF FF FF FF FF FF FF ...
T4CB8 053:834.350 - 0.099ms returns 551 (0x227)
T4CB8 053:836.279 JLINK_ReadMemEx(0x40022000, 0x4 Bytes, Flags = 0x02000004)
T4CB8 053:836.315   CPU_ReadMem(4 bytes @ 0x40022000)
T4CB8 053:837.041   Data:  32 00 00 00
T4CB8 053:837.097 - 0.830ms returns 4 (0x4)
T4CB8 053:837.201 JLINK_ReadMemEx(0x40022000, 0x4 Bytes, Flags = 0x02000004)
T4CB8 053:837.240   CPU_ReadMem(4 bytes @ 0x40022000)
T4CB8 053:838.061   Data:  32 00 00 00
T4CB8 053:838.106 - 0.915ms returns 4 (0x4)
T4CB8 053:838.192 JLINK_ReadMemEx(0x4002200C, 0x4 Bytes, Flags = 0x02000004)
T4CB8 053:838.223   CPU_ReadMem(4 bytes @ 0x4002200C)
T4CB8 053:838.841   Data:  00 00 00 00
T4CB8 053:838.879 - 0.697ms returns 4 (0x4)
T4CB8 053:838.957 JLINK_ReadMemEx(0x4002200C, 0x4 Bytes, Flags = 0x02000004)
T4CB8 053:838.986   CPU_ReadMem(4 bytes @ 0x4002200C)
T4CB8 053:839.565   Data:  00 00 00 00
T4CB8 053:839.605 - 0.657ms returns 4 (0x4)
T4CB8 053:839.688 JLINK_ReadMemEx(0x40022010, 0x4 Bytes, Flags = 0x02000004)
T4CB8 053:839.717   CPU_ReadMem(4 bytes @ 0x40022010)
T4CB8 053:840.271   Data:  80 00 00 00
T4CB8 053:840.308 - 0.629ms returns 4 (0x4)
T4CB8 053:840.380 JLINK_ReadMemEx(0x40022010, 0x4 Bytes, Flags = 0x02000004)
T4CB8 053:840.407   CPU_ReadMem(4 bytes @ 0x40022010)
T4CB8 053:840.995   Data:  80 00 00 00
T4CB8 053:841.033 - 0.663ms returns 4 (0x4)
T4CB8 053:841.122 JLINK_ReadMemEx(0x4002201C, 0x4 Bytes, Flags = 0x02000004)
T4CB8 053:841.162   CPU_ReadMem(4 bytes @ 0x4002201C)
T4CB8 053:841.785   Data:  FC FF FF 03
T4CB8 053:841.841 - 0.735ms returns 4 (0x4)
T4CB8 053:841.944 JLINK_ReadMemEx(0x4002201C, 0x4 Bytes, Flags = 0x02000004)
T4CB8 053:841.980   CPU_ReadMem(4 bytes @ 0x4002201C)
T4CB8 053:842.615   Data:  FC FF FF 03
T4CB8 053:842.662 - 0.727ms returns 4 (0x4)
T4CB8 053:842.735 JLINK_ReadMemEx(0x40022020, 0x4 Bytes, Flags = 0x02000004)
T4CB8 053:842.762   CPU_ReadMem(4 bytes @ 0x40022020)
T4CB8 053:843.397   Data:  FF FF FF FF
T4CB8 053:843.434 - 0.709ms returns 4 (0x4)
T4CB8 053:843.509 JLINK_ReadMemEx(0x40022020, 0x4 Bytes, Flags = 0x02000004)
T4CB8 053:843.536   CPU_ReadMem(4 bytes @ 0x40022020)
T4CB8 053:844.147   Data:  FF FF FF FF
T4CB8 053:844.187 - 0.689ms returns 4 (0x4)
T4CB8 053:849.825 JLINK_ReadMemEx(0x080018E8, 0x3C Bytes, Flags = 0x02000000)
T4CB8 053:849.888   CPU_ReadMem(128 bytes @ 0x080018C0)
T4CB8 053:851.608    -- Updating C cache (128 bytes @ 0x080018C0)
T4CB8 053:851.674    -- Read from C cache (60 bytes @ 0x080018E8)
T4CB8 053:851.718   Data:  70 B5 4F F0 00 61 0E 4E 01 EB C0 25 30 46 00 F0 ...
T4CB8 053:851.760 - 1.948ms returns 60 (0x3C)
T4CB8 053:851.891 JLINK_ReadMemEx(0x08001924, 0x3C Bytes, Flags = 0x02000000)
T4CB8 053:851.932   CPU_ReadMem(64 bytes @ 0x08001940)
T4CB8 053:853.063    -- Updating C cache (64 bytes @ 0x08001940)
T4CB8 053:853.120    -- Read from C cache (60 bytes @ 0x08001924)
T4CB8 053:853.152   Data:  70 BD 00 00 FF FF 5F 00 00 20 02 40 02 48 01 69 ...
T4CB8 053:853.181 - 1.299ms returns 60 (0x3C)
T4CB8 053:853.270 JLINK_ReadMemEx(0x08001960, 0x3C Bytes, Flags = 0x02000000)
T4CB8 053:853.299   CPU_ReadMem(64 bytes @ 0x08001980)
T4CB8 053:854.363    -- Updating C cache (64 bytes @ 0x08001980)
T4CB8 053:854.403    -- Read from C cache (60 bytes @ 0x08001960)
T4CB8 053:854.434   Data:  40 1E FA D1 09 E0 4A 07 01 D5 02 21 04 E0 C9 06 ...
T4CB8 053:854.464 - 1.204ms returns 60 (0x3C)
T6BE4 072:044.802 JLINK_ReadMemEx(0x08001984, 0x2 Bytes, Flags = 0x02000000)
T6BE4 072:044.849    -- Read from C cache (2 bytes @ 0x08001984)
T6BE4 072:044.881   Data:  2D E9
T6BE4 072:044.911 - 0.118ms returns 2 (0x2)
T6BE4 072:044.934 JLINK_HasError()
T6BE4 072:044.959 JLINK_SetBPEx(Addr = 0x08001670, Type = 0xFFFFFFF2)
T6BE4 072:044.983 - 0.034ms returns 0x00000004
T6BE4 072:045.006 JLINK_HasError()
T6BE4 072:045.027 JLINK_SetBPEx(Addr = 0x080019EE, Type = 0xFFFFFFF2)
T6BE4 072:045.048 - 0.031ms returns 0x00000005
T6BE4 072:045.071 JLINK_HasError()
T6BE4 072:045.092 JLINK_HasError()
T6BE4 072:045.114 JLINK_Go()
T6BE4 072:045.869   CPU_WriteMem(4 bytes @ 0xE0002000)
T6BE4 072:046.607   CPU_WriteMem(4 bytes @ 0xE0002000)
T6BE4 072:047.364   CPU_ReadMem(4 bytes @ 0xE0001000)
T6BE4 072:047.995   CPU_WriteMem(4 bytes @ 0xE000200C)
T6BE4 072:048.683   CPU_WriteMem(4 bytes @ 0xE0001004)
T6BE4 072:050.874 - 5.776ms
T6BE4 072:151.335 JLINK_HasError()
T6BE4 072:151.385 JLINK_IsHalted()
T6BE4 072:154.531 - 3.171ms returns TRUE
T6BE4 072:154.623 JLINK_HasError()
T6BE4 072:154.649 JLINK_Halt()
T6BE4 072:154.670 - 0.030ms returns 0x00
T6BE4 072:154.692 JLINK_IsHalted()
T6BE4 072:154.712 - 0.029ms returns TRUE
T6BE4 072:154.733 JLINK_IsHalted()
T6BE4 072:154.753 - 0.029ms returns TRUE
T6BE4 072:154.774 JLINK_IsHalted()
T6BE4 072:154.794 - 0.029ms returns TRUE
T6BE4 072:154.816 JLINK_HasError()
T6BE4 072:154.838 JLINK_ReadReg(R15 (PC))
T6BE4 072:154.861 - 0.032ms returns 0x080019EE
T6BE4 072:154.883 JLINK_ReadReg(XPSR)
T6BE4 072:154.903 - 0.030ms returns 0x61000000
T6BE4 072:154.928 JLINK_HasError()
